
T3A84 000:336 SEGGER J-Link V4.91b (beta) Log File (0001ms, 0289ms total)
T3A84 000:336 DLL Compiled: Sep 15 2014 09:17:56 (0001ms, 0289ms total)
T3A84 000:336 Logging started @ 2014-10-23 01:14 (0001ms, 0289ms total)
T3A84 000:337 JLINK_SetWarnOutHandler(...) (0000ms, 0289ms total)
T3A84 000:337 JLINK_OpenEx(...)
Firmware: J-Link ARM V8 compiled Dec  6 2018 18:57:44
Hardware: V8.00
S/N: 8000158
Feature(s): RDI,FlashDL,FlashBP,JFlash,GDBFull  returns O.K. (0271ms, 0560ms total)
T3A84 000:608 JLINK_SetErrorOutHandler(...) (0000ms, 0560ms total)
T3A84 000:608 JLINK_ExecCommand("ProjectFile = "E:\µ¥Æ¬»ú\STM32\lwip\lwip-1.4.1\Project\RVMDK\JLinkSettings.ini"", ...)  returns 0x00 (0001ms, 0561ms total)
T3A84 000:619 JLINK_ExecCommand("Device = STM32F107VC", ...)Device "STM32F107VC" selected (256 KB flash, 64 KB RAM).  returns 0x00 (0008ms, 0569ms total)
T3A84 000:628 JLINK_ExecCommand("DisableConnectionTimeout", ...)  returns 0x01 (0000ms, 0569ms total)
T3A84 000:628 JLINK_GetHardwareVersion()  returns 0x13880 (0000ms, 0569ms total)
T3A84 000:628 JLINK_GetDLLVersion()  returns 49102 (0000ms, 0569ms total)
T3A84 000:628 JLINK_GetFirmwareString(...) (0000ms, 0569ms total)
T3A84 000:644 JLINK_GetDLLVersion()  returns 49102 (0000ms, 0569ms total)
T3A84 000:644 JLINK_GetCompileDateTime() (0000ms, 0569ms total)
T3A84 000:647 JLINK_GetFirmwareString(...) (0000ms, 0569ms total)
T3A84 000:650 JLINK_GetHardwareVersion()  returns 0x13880 (0000ms, 0569ms total)
T3A84 000:657 JLINK_TIF_Select(JLINKARM_TIF_SWD)  returns 0x00 (0004ms, 0573ms total)
T3A84 000:661 JLINK_SetSpeed(10000) (0001ms, 0574ms total)
T3A84 000:662 JLINK_GetId() >0x108 TIF>Found SWD-DP with ID 0x1BA01477 >0x0D TIF> >0x28 TIF> >0x0D TIF> >0x28 TIF> >0x0D TIF> >0x21 TIF> >0x0D TIF> >0x28 TIF> >0x0D TIF> >0x28 TIF> >0x0D TIF> >0x28 TIF> >0x0D TIF> >0x21 TIF> >0x0D TIF> >0x21 TIF> >0x0D TIF> >0x28 TIF> >0x0D TIF> >0x21 TIF> >0x0D TIF> >0x21 TIF> >0x0D TIF> >0x28 TIF> >0x0D TIF> >0x28 TIF> >0x108 TIF>Found SWD-DP with ID 0x1BA01477 >0x0D TIF> >0x21 TIF> >0x0D TIF> >0x28 TIF> >0x0D TIF> >0x28 TIF> >0x0D TIF> >0x21 TIF> >0x0D TIF> >0x28 TIF>
 >0x0D TIF> >0x21 TIF> >0x0D TIF> >0x21 TIF> >0x0D TIF> >0x21 TIF> >0x0D TIF> >0x28 TIF> >0x0D TIF> >0x21 TIF> >0x0D TIF> >0x28 TIF> >0x0D TIF> >0x28 TIF> >0x0D TIF> >0x21 TIF> >0x0D TIF> >0x28 TIF> >0x0D TIF> >0x28 TIF> >0x0D TIF> >0x28 TIF> >0x0D TIF> >0x21 TIF> >0x0D TIF> >0x21 TIF> >0x0D TIF> >0x28 TIF> >0x0D TIF> >0x21 TIF> >0x0D TIF> >0x21 TIF>Found Cortex-M3 r1p1, Little endian. >0x0D TIF> >0x28 TIF> -- CPU_WriteMem(4 bytes @ 0xE0002000) -- CPU_ReadMem(4 bytes @ 0xE000EDF0)
 -- CPU_WriteMem(4 bytes @ 0xE000EDF0) -- CPU_ReadMem(4 bytes @ 0xE0002000)FPUnit: 6 code (BP) slots and 2 literal slots -- CPU_ReadMem(4 bytes @ 0xE000EDFC) -- CPU_WriteMem(4 bytes @ 0xE000EDFC) -- CPU_ReadMem(4 bytes @ 0xE0001000) -- CPU_WriteMem(4 bytes @ 0xE0001000) -- CPU_ReadMem(4 bytes @ 0xE000ED88) -- CPU_WriteMem(4 bytes @ 0xE000ED88) -- CPU_ReadMem(4 bytes @ 0xE000ED88) -- CPU_WriteMem(4 bytes @ 0xE000ED88) -- CPU_ReadMem(4 bytes @ 0xE00FF010)TPIU fitted. -- CPU_ReadMem(4 bytes @ 0xE00FF014)
ETM fitted. -- CPU_ReadMem(4 bytes @ 0xE00FF018) >0x0D TIF> >0x21 TIF>  returns 0x1BA01477 (0113ms, 0687ms total)
T3A84 000:775 JLINK_GetDeviceFamily()  returns 3 (0000ms, 0687ms total)
T3A84 000:780 JLINK_ReadMem (0xE00FFFF0, 0x0010 Bytes, ...) -- CPU is running -- CPU_ReadMem(16 bytes @ 0xE00FFFF0) - Data: 0D 00 00 00 10 00 00 00 05 00 00 00 B1 00 00 00  returns 0x00 (0001ms, 0688ms total)
T3A84 000:781 JLINK_ReadMem (0xE00FFFD0, 0x0020 Bytes, ...) -- CPU is running -- CPU_ReadMem(32 bytes @ 0xE00FFFD0) - Data: 00 00 00 00 00 00 00 00 00 00 00 00 00 00 00 00 ...  returns 0x00 (0001ms, 0689ms total)
T3A84 000:782 JLINK_ReadMem (0xE00FF000, 0x0018 Bytes, ...) -- CPU is running -- CPU_ReadMem(24 bytes @ 0xE00FF000) - Data: 03 F0 F0 FF 03 20 F0 FF 03 30 F0 FF 03 10 F0 FF ...  returns 0x00 (0001ms, 0690ms total)
T3A84 000:783 JLINK_ReadMemU32(0xE000ED00, 0x0001 Items, ...) -- CPU is running -- CPU_ReadMem(4 bytes @ 0xE000ED00) - Data: 31 C2 1F 41  returns 0x01 (0001ms, 0691ms total)
T3A84 000:784 JLINK_SetResetType(JLINKARM_RESET_TYPE_NORMAL)  returns JLINKARM_RESET_TYPE_NORMAL (0000ms, 0691ms total)
T3A84 000:784 JLINK_Reset() -- CPU_WriteMem(4 bytes @ 0xE0002000) -- CPU_ReadMem(4 bytes @ 0xE000EDFC) -- CPU_WriteMem(4 bytes @ 0xE000EDFC) -- CPU_ReadMem(4 bytes @ 0xE0001000) (0019ms, 0710ms total)
T3A84 000:803 JLINK_Halt()  returns 0x00 (0000ms, 0710ms total)
T3A84 000:803 JLINK_IsHalted()  returns TRUE (0000ms, 0710ms total)
T3A84 000:803 JLINK_ReadMemU32(0xE000EDF0, 0x0001 Items, ...) -- CPU_ReadMem(4 bytes @ 0xE000EDF0) - Data: 03 00 03 00  returns 0x01 (0001ms, 0711ms total)
T3A84 000:804 JLINK_WriteU32(0xE000EDF0, 0xA05F0003) -- CPU_WriteMem(4 bytes @ 0xE000EDF0)  returns 0x00 (0001ms, 0712ms total)
T3A84 000:805 JLINK_WriteU32(0xE000EDFC, 0x01000000) -- CPU_WriteMem(4 bytes @ 0xE000EDFC)  returns 0x00 (0001ms, 0713ms total)
T3A84 000:818 JLINK_GetHWStatus(...)  returns 0x00 (0002ms, 0715ms total)
T3A84 000:827 JLINK_GetNumBPUnits(Type = 0xFFFFFF00)  returns 0x06 (0000ms, 0715ms total)
T3A84 000:827 JLINK_GetNumBPUnits(Type = 0xF0)  returns 0x2000 (0000ms, 0715ms total)
T3A84 000:827 JLINK_GetNumWPUnits()  returns 0x04 (0000ms, 0715ms total)
T3A84 000:833 JLINK_GetSpeed()  returns 0xFA0 (0000ms, 0715ms total)
T3A84 000:837 JLINK_ReadMemU32(0xE000E004, 0x0001 Items, ...) -- CPU_ReadMem(4 bytes @ 0xE000E004) - Data: 02 00 00 00  returns 0x01 (0001ms, 0716ms total)
T3A84 000:838 JLINK_ReadMemU32(0xE000E004, 0x0001 Items, ...) -- CPU_ReadMem(4 bytes @ 0xE000E004) - Data: 02 00 00 00  returns 0x01 (0001ms, 0717ms total)
T3A84 000:839 JLINK_WriteMem(0xE0001000, 0x001C Bytes, ...) - Data: 01 00 00 00 00 00 00 00 00 00 00 00 00 00 00 00 ... -- CPU_WriteMem(28 bytes @ 0xE0001000)  returns 0x1C (0001ms, 0718ms total)
T3A84 000:840 JLINK_ReadMem (0xE0001000, 0x001C Bytes, ...) -- CPU_ReadMem(28 bytes @ 0xE0001000) - Data: 01 00 00 40 00 00 00 00 00 00 00 00 00 00 00 00 ...  returns 0x00 (0001ms, 0719ms total)
T3A84 000:841 JLINK_Halt()  returns 0x00 (0000ms, 0719ms total)
T3A84 000:841 JLINK_IsHalted()  returns TRUE (0000ms, 0719ms total)
T3A84 000:844 JLINK_WriteMem(0x20000000, 0x0164 Bytes, ...) - Data: 00 BE 0A E0 0D 78 2D 06 68 40 08 24 40 00 00 D3 ... -- CPU_WriteMem(356 bytes @ 0x20000000)  returns 0x164 (0004ms, 0723ms total)
T3A84 000:848 JLINK_WriteReg(R0, 0x08000000)  returns 0x00 (0000ms, 0723ms total)
T3A84 000:848 JLINK_WriteReg(R1, 0x00B71B00)  returns 0x00 (0000ms, 0723ms total)
T3A84 000:848 JLINK_WriteReg(R2, 0x00000001)  returns 0x00 (0000ms, 0723ms total)
T3A84 000:848 JLINK_WriteReg(R3, 0x00000000)  returns 0x00 (0000ms, 0723ms total)
T3A84 000:848 JLINK_WriteReg(R4, 0x00000000)  returns 0x00 (0000ms, 0723ms total)
T3A84 000:848 JLINK_WriteReg(R5, 0x00000000)  returns 0x00 (0000ms, 0723ms total)
T3A84 000:848 JLINK_WriteReg(R6, 0x00000000)  returns 0x00 (0000ms, 0723ms total)
T3A84 000:848 JLINK_WriteReg(R7, 0x00000000)  returns 0x00 (0000ms, 0723ms total)
T3A84 000:848 JLINK_WriteReg(R8, 0x00000000)  returns 0x00 (0000ms, 0723ms total)
T3A84 000:848 JLINK_WriteReg(R9, 0x20000160)  returns 0x00 (0000ms, 0723ms total)
T3A84 000:848 JLINK_WriteReg(R10, 0x00000000)  returns 0x00 (0000ms, 0723ms total)
T3A84 000:848 JLINK_WriteReg(R11, 0x00000000)  returns 0x00 (0000ms, 0723ms total)
T3A84 000:849 JLINK_WriteReg(R12, 0x00000000)  returns 0x00 (0000ms, 0723ms total)
T3A84 000:849 JLINK_WriteReg(R13 (SP), 0x20001000)  returns 0x00 (0000ms, 0723ms total)
T3A84 000:849 JLINK_WriteReg(R14, 0x20000001)  returns 0x00 (0000ms, 0723ms total)
T3A84 000:849 JLINK_WriteReg(R15 (PC), 0x20000038)  returns 0x00 (0000ms, 0723ms total)
T3A84 000:849 JLINK_WriteReg(XPSR, 0x01000000)  returns 0x00 (0000ms, 0723ms total)
T3A84 000:849 JLINK_WriteReg(MSP, 0x20001000)  returns 0x00 (0000ms, 0723ms total)
T3A84 000:849 JLINK_WriteReg(PSP, 0x20001000)  returns 0x00 (0000ms, 0723ms total)
T3A84 000:849 JLINK_WriteReg(CFBP, 0x00000000)  returns 0x00 (0000ms, 0723ms total)
T3A84 000:849 JLINK_SetBPEx(Addr = 0x20000000, Type = 0xFFFFFFF2) -- CPU_ReadMem(2 bytes @ 0x20000000)  returns 0x00000001 (0001ms, 0724ms total)
T3A84 000:850 JLINK_Go() -- CPU_WriteMem(2 bytes @ 0x20000000) -- CPU_WriteMem(4 bytes @ 0xE0002008) -- CPU_WriteMem(4 bytes @ 0xE000200C) -- CPU_WriteMem(4 bytes @ 0xE0002010) -- CPU_WriteMem(4 bytes @ 0xE0002014) -- CPU_WriteMem(4 bytes @ 0xE0002018) -- CPU_WriteMem(4 bytes @ 0xE000201C) -- CPU_WriteMem(4 bytes @ 0xE0001004) (0011ms, 0735ms total)
T3A84 000:861 JLINK_IsHalted() -- CPU_ReadMem(2 bytes @ 0x20000000)  returns TRUE (0006ms, 0741ms total)
T3A84 000:867 JLINK_ReadReg(R15 (PC))  returns 0x20000000 (0000ms, 0735ms total)
T3A84 000:867 JLINK_ClrBPEx(BPHandle = 0x00000001)  returns 0x00 (0000ms, 0735ms total)
T3A84 000:867 JLINK_ReadReg(R0)  returns 0x00000000 (0000ms, 0735ms total)
T3A84 000:868 JLINK_WriteReg(R0, 0x08000000)  returns 0x00 (0000ms, 0735ms total)
T3A84 000:868 JLINK_WriteReg(R1, 0x00B71B00)  returns 0x00 (0000ms, 0735ms total)
T3A84 000:868 JLINK_WriteReg(R2, 0x00000001)  returns 0x00 (0000ms, 0735ms total)
T3A84 000:868 JLINK_WriteReg(R3, 0x00000000)  returns 0x00 (0000ms, 0735ms total)
T3A84 000:868 JLINK_WriteReg(R4, 0x00000000)  returns 0x00 (0000ms, 0735ms total)
T3A84 000:868 JLINK_WriteReg(R5, 0x00000000)  returns 0x00 (0000ms, 0735ms total)
T3A84 000:868 JLINK_WriteReg(R6, 0x00000000)  returns 0x00 (0000ms, 0735ms total)
T3A84 000:868 JLINK_WriteReg(R7, 0x00000000)  returns 0x00 (0000ms, 0735ms total)
T3A84 000:868 JLINK_WriteReg(R8, 0x00000000)  returns 0x00 (0000ms, 0735ms total)
T3A84 000:868 JLINK_WriteReg(R9, 0x20000160)  returns 0x00 (0000ms, 0735ms total)
T3A84 000:868 JLINK_WriteReg(R10, 0x00000000)  returns 0x00 (0000ms, 0735ms total)
T3A84 000:868 JLINK_WriteReg(R11, 0x00000000)  returns 0x00 (0000ms, 0735ms total)
T3A84 000:868 JLINK_WriteReg(R12, 0x00000000)  returns 0x00 (0000ms, 0735ms total)
T3A84 000:868 JLINK_WriteReg(R13 (SP), 0x20001000)  returns 0x00 (0000ms, 0735ms total)
T3A84 000:868 JLINK_WriteReg(R14, 0x20000001)  returns 0x00 (0000ms, 0735ms total)
T3A84 000:868 JLINK_WriteReg(R15 (PC), 0x2000007C)  returns 0x00 (0000ms, 0735ms total)
T3A84 000:868 JLINK_WriteReg(XPSR, 0x01000000)  returns 0x00 (0000ms, 0735ms total)
T3A84 000:868 JLINK_WriteReg(MSP, 0x20001000)  returns 0x00 (0000ms, 0735ms total)
T3A84 000:868 JLINK_WriteReg(PSP, 0x20001000)  returns 0x00 (0000ms, 0735ms total)
T3A84 000:868 JLINK_WriteReg(CFBP, 0x00000000)  returns 0x00 (0000ms, 0735ms total)
T3A84 000:868 JLINK_SetBPEx(Addr = 0x20000000, Type = 0xFFFFFFF2)  returns 0x00000002 (0000ms, 0735ms total)
T3A84 000:868 JLINK_Go() (0002ms, 0737ms total)
T3A84 000:870 JLINK_IsHalted()  returns FALSE (0001ms, 0738ms total)
T3A84 000:908 JLINK_IsHalted() -- CPU_ReadMem(2 bytes @ 0x20000000)  returns TRUE (0006ms, 0743ms total)
T3A84 000:914 JLINK_ReadReg(R15 (PC))  returns 0x20000000 (0000ms, 0737ms total)
T3A84 000:914 JLINK_ClrBPEx(BPHandle = 0x00000002)  returns 0x00 (0000ms, 0737ms total)
T3A84 000:914 JLINK_ReadReg(R0)  returns 0x00000000 (0000ms, 0737ms total)
T3A84 000:965 JLINK_WriteReg(R0, 0x00000001)  returns 0x00 (0000ms, 0737ms total)
T3A84 000:965 JLINK_WriteReg(R1, 0x00B71B00)  returns 0x00 (0000ms, 0737ms total)
T3A84 000:965 JLINK_WriteReg(R2, 0x00000001)  returns 0x00 (0000ms, 0737ms total)
T3A84 000:965 JLINK_WriteReg(R3, 0x00000000)  returns 0x00 (0000ms, 0737ms total)
T3A84 000:965 JLINK_WriteReg(R4, 0x00000000)  returns 0x00 (0000ms, 0737ms total)
T3A84 000:965 JLINK_WriteReg(R5, 0x00000000)  returns 0x00 (0000ms, 0737ms total)
T3A84 000:965 JLINK_WriteReg(R6, 0x00000000)  returns 0x00 (0000ms, 0737ms total)
T3A84 000:965 JLINK_WriteReg(R7, 0x00000000)  returns 0x00 (0000ms, 0737ms total)
T3A84 000:965 JLINK_WriteReg(R8, 0x00000000)  returns 0x00 (0000ms, 0737ms total)
T3A84 000:965 JLINK_WriteReg(R9, 0x20000160)  returns 0x00 (0000ms, 0737ms total)
T3A84 000:965 JLINK_WriteReg(R10, 0x00000000)  returns 0x00 (0000ms, 0737ms total)
T3A84 000:965 JLINK_WriteReg(R11, 0x00000000)  returns 0x00 (0000ms, 0737ms total)
T3A84 000:965 JLINK_WriteReg(R12, 0x00000000)  returns 0x00 (0000ms, 0737ms total)
T3A84 000:965 JLINK_WriteReg(R13 (SP), 0x20001000)  returns 0x00 (0000ms, 0737ms total)
T3A84 000:965 JLINK_WriteReg(R14, 0x20000001)  returns 0x00 (0000ms, 0737ms total)
T3A84 000:965 JLINK_WriteReg(R15 (PC), 0x2000006A)  returns 0x00 (0000ms, 0737ms total)
T3A84 000:965 JLINK_WriteReg(XPSR, 0x01000000)  returns 0x00 (0000ms, 0737ms total)
T3A84 000:965 JLINK_WriteReg(MSP, 0x20001000)  returns 0x00 (0000ms, 0737ms total)
T3A84 000:965 JLINK_WriteReg(PSP, 0x20001000)  returns 0x00 (0000ms, 0737ms total)
T3A84 000:965 JLINK_WriteReg(CFBP, 0x00000000)  returns 0x00 (0000ms, 0737ms total)
T3A84 000:965 JLINK_SetBPEx(Addr = 0x20000000, Type = 0xFFFFFFF2)  returns 0x00000003 (0000ms, 0737ms total)
T3A84 000:965 JLINK_Go() (0002ms, 0739ms total)
T3A84 000:967 JLINK_IsHalted() -- CPU_ReadMem(2 bytes @ 0x20000000)  returns TRUE (0006ms, 0745ms total)
T3A84 000:973 JLINK_ReadReg(R15 (PC))  returns 0x20000000 (0000ms, 0739ms total)
T3A84 000:973 JLINK_ClrBPEx(BPHandle = 0x00000003)  returns 0x00 (0000ms, 0739ms total)
T3A84 000:973 JLINK_ReadReg(R0)  returns 0x00000000 (0000ms, 0739ms total)
T3A84 000:976 JLINK_WriteMem(0x20000000, 0x0164 Bytes, ...) - Data: 00 BE 0A E0 0D 78 2D 06 68 40 08 24 40 00 00 D3 ... -- CPU_WriteMem(356 bytes @ 0x20000000)  returns 0x164 (0004ms, 0743ms total)
T3A84 000:980 JLINK_WriteReg(R0, 0x08000000)  returns 0x00 (0000ms, 0743ms total)
T3A84 000:980 JLINK_WriteReg(R1, 0x00B71B00)  returns 0x00 (0000ms, 0743ms total)
T3A84 000:980 JLINK_WriteReg(R2, 0x00000002)  returns 0x00 (0001ms, 0744ms total)
T3A84 000:981 JLINK_WriteReg(R3, 0x00000000)  returns 0x00 (0000ms, 0744ms total)
T3A84 000:981 JLINK_WriteReg(R4, 0x00000000)  returns 0x00 (0000ms, 0744ms total)
T3A84 000:981 JLINK_WriteReg(R5, 0x00000000)  returns 0x00 (0000ms, 0744ms total)
T3A84 000:981 JLINK_WriteReg(R6, 0x00000000)  returns 0x00 (0000ms, 0744ms total)
T3A84 000:981 JLINK_WriteReg(R7, 0x00000000)  returns 0x00 (0000ms, 0744ms total)
T3A84 000:981 JLINK_WriteReg(R8, 0x00000000)  returns 0x00 (0000ms, 0744ms total)
T3A84 000:981 JLINK_WriteReg(R9, 0x20000160)  returns 0x00 (0000ms, 0744ms total)
T3A84 000:981 JLINK_WriteReg(R10, 0x00000000)  returns 0x00 (0000ms, 0744ms total)
T3A84 000:981 JLINK_WriteReg(R11, 0x00000000)  returns 0x00 (0000ms, 0744ms total)
T3A84 000:981 JLINK_WriteReg(R12, 0x00000000)  returns 0x00 (0000ms, 0744ms total)
T3A84 000:981 JLINK_WriteReg(R13 (SP), 0x20001000)  returns 0x00 (0000ms, 0744ms total)
T3A84 000:981 JLINK_WriteReg(R14, 0x20000001)  returns 0x00 (0000ms, 0744ms total)
T3A84 000:981 JLINK_WriteReg(R15 (PC), 0x20000038)  returns 0x00 (0000ms, 0744ms total)
T3A84 000:981 JLINK_WriteReg(XPSR, 0x01000000)  returns 0x00 (0000ms, 0744ms total)
T3A84 000:981 JLINK_WriteReg(MSP, 0x20001000)  returns 0x00 (0000ms, 0744ms total)
T3A84 000:981 JLINK_WriteReg(PSP, 0x20001000)  returns 0x00 (0000ms, 0744ms total)
T3A84 000:981 JLINK_WriteReg(CFBP, 0x00000000)  returns 0x00 (0000ms, 0744ms total)
T3A84 000:981 JLINK_SetBPEx(Addr = 0x20000000, Type = 0xFFFFFFF2) -- CPU_ReadMem(2 bytes @ 0x20000000)  returns 0x00000004 (0001ms, 0745ms total)
T3A84 000:982 JLINK_Go() -- CPU_WriteMem(2 bytes @ 0x20000000) (0004ms, 0749ms total)
T3A84 000:986 JLINK_IsHalted() -- CPU_ReadMem(2 bytes @ 0x20000000)  returns TRUE (0007ms, 0756ms total)
T3A84 000:993 JLINK_ReadReg(R15 (PC))  returns 0x20000000 (0000ms, 0749ms total)
T3A84 000:993 JLINK_ClrBPEx(BPHandle = 0x00000004)  returns 0x00 (0000ms, 0749ms total)
T3A84 000:993 JLINK_ReadReg(R0)  returns 0x00000000 (0000ms, 0749ms total)
T3A84 000:993 JLINK_WriteMem(0x20000164, 0x0400 Bytes, ...) - Data: 10 C3 00 20 29 89 00 08 F9 02 00 08 FB 02 00 08 ... -- CPU_WriteMem(1024 bytes @ 0x20000164)  returns 0x400 (0011ms, 0760ms total)
T3A84 001:004 JLINK_WriteReg(R0, 0x08000000)  returns 0x00 (0001ms, 0761ms total)
T3A84 001:005 JLINK_WriteReg(R1, 0x00000400)  returns 0x00 (0000ms, 0761ms total)
T3A84 001:005 JLINK_WriteReg(R2, 0x20000164)  returns 0x00 (0000ms, 0761ms total)
T3A84 001:005 JLINK_WriteReg(R3, 0x00000000)  returns 0x00 (0000ms, 0761ms total)
T3A84 001:005 JLINK_WriteReg(R4, 0x00000000)  returns 0x00 (0000ms, 0761ms total)
T3A84 001:005 JLINK_WriteReg(R5, 0x00000000)  returns 0x00 (0000ms, 0761ms total)
T3A84 001:005 JLINK_WriteReg(R6, 0x00000000)  returns 0x00 (0000ms, 0761ms total)
T3A84 001:005 JLINK_WriteReg(R7, 0x00000000)  returns 0x00 (0000ms, 0761ms total)
T3A84 001:005 JLINK_WriteReg(R8, 0x00000000)  returns 0x00 (0000ms, 0761ms total)
T3A84 001:005 JLINK_WriteReg(R9, 0x20000160)  returns 0x00 (0000ms, 0761ms total)
T3A84 001:005 JLINK_WriteReg(R10, 0x00000000)  returns 0x00 (0001ms, 0762ms total)
T3A84 001:006 JLINK_WriteReg(R11, 0x00000000)  returns 0x00 (0000ms, 0762ms total)
T3A84 001:006 JLINK_WriteReg(R12, 0x00000000)  returns 0x00 (0000ms, 0762ms total)
T3A84 001:006 JLINK_WriteReg(R13 (SP), 0x20001000)  returns 0x00 (0000ms, 0762ms total)
T3A84 001:006 JLINK_WriteReg(R14, 0x20000001)  returns 0x00 (0000ms, 0762ms total)
T3A84 001:006 JLINK_WriteReg(R15 (PC), 0x200000F4)  returns 0x00 (0000ms, 0762ms total)
T3A84 001:006 JLINK_WriteReg(XPSR, 0x01000000)  returns 0x00 (0000ms, 0762ms total)
T3A84 001:006 JLINK_WriteReg(MSP, 0x20001000)  returns 0x00 (0000ms, 0762ms total)
T3A84 001:006 JLINK_WriteReg(PSP, 0x20001000)  returns 0x00 (0000ms, 0762ms total)
T3A84 001:006 JLINK_WriteReg(CFBP, 0x00000000)  returns 0x00 (0000ms, 0762ms total)
T3A84 001:006 JLINK_SetBPEx(Addr = 0x20000000, Type = 0xFFFFFFF2)  returns 0x00000005 (0000ms, 0762ms total)
T3A84 001:006 JLINK_Go() (0002ms, 0764ms total)
T3A84 001:008 JLINK_IsHalted()  returns FALSE (0001ms, 0765ms total)
T3A84 001:029 JLINK_IsHalted()  returns FALSE (0001ms, 0765ms total)
T3A84 001:031 JLINK_IsHalted()  returns FALSE (0001ms, 0765ms total)
T3A84 001:033 JLINK_IsHalted()  returns FALSE (0001ms, 0765ms total)
T3A84 001:035 JLINK_IsHalted()  returns FALSE (0001ms, 0765ms total)
T3A84 001:037 JLINK_IsHalted()  returns FALSE (0001ms, 0765ms total)
T3A84 001:039 JLINK_IsHalted() -- CPU_ReadMem(2 bytes @ 0x20000000)  returns TRUE (0006ms, 0770ms total)
T3A84 001:045 JLINK_ReadReg(R15 (PC))  returns 0x20000000 (0000ms, 0764ms total)
T3A84 001:045 JLINK_ClrBPEx(BPHandle = 0x00000005)  returns 0x00 (0000ms, 0764ms total)
T3A84 001:045 JLINK_ReadReg(R0)  returns 0x00000000 (0000ms, 0764ms total)
T3A84 001:046 JLINK_WriteMem(0x20000164, 0x0400 Bytes, ...) - Data: 02 00 18 20 8D F8 03 00 69 46 66 48 01 F0 04 F9 ... -- CPU_WriteMem(1024 bytes @ 0x20000164)  returns 0x400 (0011ms, 0775ms total)
T3A84 001:057 JLINK_WriteReg(R0, 0x08000400)  returns 0x00 (0000ms, 0775ms total)
T3A84 001:057 JLINK_WriteReg(R1, 0x00000400)  returns 0x00 (0001ms, 0776ms total)
T3A84 001:058 JLINK_WriteReg(R2, 0x20000164)  returns 0x00 (0000ms, 0776ms total)
T3A84 001:058 JLINK_WriteReg(R3, 0x00000000)  returns 0x00 (0000ms, 0776ms total)
T3A84 001:058 JLINK_WriteReg(R4, 0x00000000)  returns 0x00 (0000ms, 0776ms total)
T3A84 001:058 JLINK_WriteReg(R5, 0x00000000)  returns 0x00 (0000ms, 0776ms total)
T3A84 001:058 JLINK_WriteReg(R6, 0x00000000)  returns 0x00 (0000ms, 0776ms total)
T3A84 001:058 JLINK_WriteReg(R7, 0x00000000)  returns 0x00 (0000ms, 0776ms total)
T3A84 001:058 JLINK_WriteReg(R8, 0x00000000)  returns 0x00 (0000ms, 0776ms total)
T3A84 001:058 JLINK_WriteReg(R9, 0x20000160)  returns 0x00 (0000ms, 0776ms total)
T3A84 001:058 JLINK_WriteReg(R10, 0x00000000)  returns 0x00 (0000ms, 0776ms total)
T3A84 001:058 JLINK_WriteReg(R11, 0x00000000)  returns 0x00 (0000ms, 0776ms total)
T3A84 001:058 JLINK_WriteReg(R12, 0x00000000)  returns 0x00 (0000ms, 0776ms total)
T3A84 001:058 JLINK_WriteReg(R13 (SP), 0x20001000)  returns 0x00 (0000ms, 0776ms total)
T3A84 001:058 JLINK_WriteReg(R14, 0x20000001)  returns 0x00 (0000ms, 0776ms total)
T3A84 001:058 JLINK_WriteReg(R15 (PC), 0x200000F4)  returns 0x00 (0000ms, 0776ms total)
T3A84 001:058 JLINK_WriteReg(XPSR, 0x01000000)  returns 0x00 (0000ms, 0776ms total)
T3A84 001:058 JLINK_WriteReg(MSP, 0x20001000)  returns 0x00 (0000ms, 0776ms total)
T3A84 001:058 JLINK_WriteReg(PSP, 0x20001000)  returns 0x00 (0000ms, 0776ms total)
T3A84 001:058 JLINK_WriteReg(CFBP, 0x00000000)  returns 0x00 (0000ms, 0776ms total)
T3A84 001:058 JLINK_SetBPEx(Addr = 0x20000000, Type = 0xFFFFFFF2)  returns 0x00000006 (0000ms, 0776ms total)
T3A84 001:058 JLINK_Go() (0003ms, 0779ms total)
T3A84 001:061 JLINK_IsHalted()  returns FALSE (0001ms, 0780ms total)
T3A84 001:068 JLINK_IsHalted()  returns FALSE (0001ms, 0780ms total)
T3A84 001:070 JLINK_IsHalted()  returns FALSE (0001ms, 0780ms total)
T3A84 001:072 JLINK_IsHalted()  returns FALSE (0001ms, 0780ms total)
T3A84 001:074 JLINK_IsHalted()  returns FALSE (0001ms, 0780ms total)
T3A84 001:076 JLINK_IsHalted()  returns FALSE (0001ms, 0780ms total)
T3A84 001:078 JLINK_IsHalted()  returns FALSE (0001ms, 0780ms total)
T3A84 001:080 JLINK_IsHalted()  returns FALSE (0001ms, 0780ms total)
T3A84 001:082 JLINK_IsHalted()  returns FALSE (0001ms, 0780ms total)
T3A84 001:084 JLINK_IsHalted()  returns FALSE (0001ms, 0780ms total)
T3A84 001:086 JLINK_IsHalted()  returns FALSE (0001ms, 0780ms total)
T3A84 001:088 JLINK_IsHalted()  returns FALSE (0001ms, 0780ms total)
T3A84 001:090 JLINK_IsHalted()  returns FALSE (0001ms, 0780ms total)
T3A84 001:092 JLINK_IsHalted() -- CPU_ReadMem(2 bytes @ 0x20000000)  returns TRUE (0006ms, 0785ms total)
T3A84 001:098 JLINK_ReadReg(R15 (PC))  returns 0x20000000 (0000ms, 0779ms total)
T3A84 001:098 JLINK_ClrBPEx(BPHandle = 0x00000006)  returns 0x00 (0000ms, 0779ms total)
T3A84 001:098 JLINK_ReadReg(R0)  returns 0x00000000 (0000ms, 0779ms total)
T3A84 001:099 JLINK_WriteMem(0x20000164, 0x0400 Bytes, ...) - Data: 01 28 0A D1 04 EB 84 00 01 EB 80 00 C0 7C 02 28 ... -- CPU_WriteMem(1024 bytes @ 0x20000164)  returns 0x400 (0011ms, 0790ms total)
T3A84 001:110 JLINK_WriteReg(R0, 0x08000800)  returns 0x00 (0000ms, 0790ms total)
T3A84 001:110 JLINK_WriteReg(R1, 0x00000400)  returns 0x00 (0000ms, 0790ms total)
T3A84 001:110 JLINK_WriteReg(R2, 0x20000164)  returns 0x00 (0000ms, 0790ms total)
T3A84 001:111 JLINK_WriteReg(R3, 0x00000000)  returns 0x00 (0000ms, 0791ms total)
T3A84 001:111 JLINK_WriteReg(R4, 0x00000000)  returns 0x00 (0000ms, 0791ms total)
T3A84 001:111 JLINK_WriteReg(R5, 0x00000000)  returns 0x00 (0000ms, 0791ms total)
T3A84 001:111 JLINK_WriteReg(R6, 0x00000000)  returns 0x00 (0000ms, 0791ms total)
T3A84 001:111 JLINK_WriteReg(R7, 0x00000000)  returns 0x00 (0000ms, 0791ms total)
T3A84 001:111 JLINK_WriteReg(R8, 0x00000000)  returns 0x00 (0000ms, 0791ms total)
T3A84 001:111 JLINK_WriteReg(R9, 0x20000160)  returns 0x00 (0000ms, 0791ms total)
T3A84 001:111 JLINK_WriteReg(R10, 0x00000000)  returns 0x00 (0000ms, 0791ms total)
T3A84 001:111 JLINK_WriteReg(R11, 0x00000000)  returns 0x00 (0000ms, 0791ms total)
T3A84 001:111 JLINK_WriteReg(R12, 0x00000000)  returns 0x00 (0000ms, 0791ms total)
T3A84 001:111 JLINK_WriteReg(R13 (SP), 0x20001000)  returns 0x00 (0000ms, 0791ms total)
T3A84 001:111 JLINK_WriteReg(R14, 0x20000001)  returns 0x00 (0000ms, 0791ms total)
T3A84 001:111 JLINK_WriteReg(R15 (PC), 0x200000F4)  returns 0x00 (0000ms, 0791ms total)
T3A84 001:111 JLINK_WriteReg(XPSR, 0x01000000)  returns 0x00 (0000ms, 0791ms total)
T3A84 001:111 JLINK_WriteReg(MSP, 0x20001000)  returns 0x00 (0000ms, 0791ms total)
T3A84 001:111 JLINK_WriteReg(PSP, 0x20001000)  returns 0x00 (0000ms, 0791ms total)
T3A84 001:111 JLINK_WriteReg(CFBP, 0x00000000)  returns 0x00 (0000ms, 0791ms total)
T3A84 001:111 JLINK_SetBPEx(Addr = 0x20000000, Type = 0xFFFFFFF2)  returns 0x00000007 (0000ms, 0791ms total)
T3A84 001:111 JLINK_Go() (0003ms, 0794ms total)
T3A84 001:114 JLINK_IsHalted()  returns FALSE (0001ms, 0795ms total)
T3A84 001:116 JLINK_IsHalted()  returns FALSE (0001ms, 0795ms total)
T3A84 001:118 JLINK_IsHalted()  returns FALSE (0001ms, 0795ms total)
T3A84 001:123 JLINK_IsHalted()  returns FALSE (0001ms, 0795ms total)
T3A84 001:125 JLINK_IsHalted()  returns FALSE (0001ms, 0795ms total)
T3A84 001:127 JLINK_IsHalted()  returns FALSE (0001ms, 0795ms total)
T3A84 001:129 JLINK_IsHalted()  returns FALSE (0001ms, 0795ms total)
T3A84 001:131 JLINK_IsHalted()  returns FALSE (0001ms, 0795ms total)
T3A84 001:133 JLINK_IsHalted()  returns FALSE (0001ms, 0795ms total)
T3A84 001:135 JLINK_IsHalted()  returns FALSE (0001ms, 0795ms total)
T3A84 001:137 JLINK_IsHalted()  returns FALSE (0001ms, 0795ms total)
T3A84 001:139 JLINK_IsHalted()  returns FALSE (0001ms, 0795ms total)
T3A84 001:141 JLINK_IsHalted()  returns FALSE (0001ms, 0795ms total)
T3A84 001:143 JLINK_IsHalted()  returns FALSE (0001ms, 0795ms total)
T3A84 001:145 JLINK_IsHalted() -- CPU_ReadMem(2 bytes @ 0x20000000)  returns TRUE (0006ms, 0800ms total)
T3A84 001:151 JLINK_ReadReg(R15 (PC))  returns 0x20000000 (0000ms, 0794ms total)
T3A84 001:151 JLINK_ClrBPEx(BPHandle = 0x00000007)  returns 0x00 (0000ms, 0794ms total)
T3A84 001:151 JLINK_ReadReg(R0)  returns 0x00000000 (0000ms, 0794ms total)
T3A84 001:154 JLINK_WriteMem(0x20000164, 0x0400 Bytes, ...) - Data: 0F FF E0 88 B0 F5 80 7F 03 D0 B0 F5 00 7F 33 D1 ... -- CPU_WriteMem(1024 bytes @ 0x20000164)  returns 0x400 (0011ms, 0805ms total)
T3A84 001:165 JLINK_WriteReg(R0, 0x08000C00)  returns 0x00 (0000ms, 0805ms total)
T3A84 001:165 JLINK_WriteReg(R1, 0x00000400)  returns 0x00 (0000ms, 0805ms total)
T3A84 001:165 JLINK_WriteReg(R2, 0x20000164)  returns 0x00 (0000ms, 0805ms total)
T3A84 001:165 JLINK_WriteReg(R3, 0x00000000)  returns 0x00 (0000ms, 0805ms total)
T3A84 001:165 JLINK_WriteReg(R4, 0x00000000)  returns 0x00 (0000ms, 0805ms total)
T3A84 001:165 JLINK_WriteReg(R5, 0x00000000)  returns 0x00 (0000ms, 0805ms total)
T3A84 001:165 JLINK_WriteReg(R6, 0x00000000)  returns 0x00 (0000ms, 0805ms total)
T3A84 001:165 JLINK_WriteReg(R7, 0x00000000)  returns 0x00 (0000ms, 0805ms total)
T3A84 001:165 JLINK_WriteReg(R8, 0x00000000)  returns 0x00 (0000ms, 0805ms total)
T3A84 001:165 JLINK_WriteReg(R9, 0x20000160)  returns 0x00 (0000ms, 0805ms total)
T3A84 001:165 JLINK_WriteReg(R10, 0x00000000)  returns 0x00 (0000ms, 0805ms total)
T3A84 001:166 JLINK_WriteReg(R11, 0x00000000)  returns 0x00 (0000ms, 0806ms total)
T3A84 001:166 JLINK_WriteReg(R12, 0x00000000)  returns 0x00 (0000ms, 0806ms total)
T3A84 001:166 JLINK_WriteReg(R13 (SP), 0x20001000)  returns 0x00 (0000ms, 0806ms total)
T3A84 001:166 JLINK_WriteReg(R14, 0x20000001)  returns 0x00 (0000ms, 0806ms total)
T3A84 001:166 JLINK_WriteReg(R15 (PC), 0x200000F4)  returns 0x00 (0000ms, 0806ms total)
T3A84 001:166 JLINK_WriteReg(XPSR, 0x01000000)  returns 0x00 (0000ms, 0806ms total)
T3A84 001:166 JLINK_WriteReg(MSP, 0x20001000)  returns 0x00 (0000ms, 0806ms total)
T3A84 001:166 JLINK_WriteReg(PSP, 0x20001000)  returns 0x00 (0000ms, 0806ms total)
T3A84 001:166 JLINK_WriteReg(CFBP, 0x00000000)  returns 0x00 (0000ms, 0806ms total)
T3A84 001:166 JLINK_SetBPEx(Addr = 0x20000000, Type = 0xFFFFFFF2)  returns 0x00000008 (0000ms, 0806ms total)
T3A84 001:166 JLINK_Go() (0002ms, 0808ms total)
T3A84 001:168 JLINK_IsHalted()  returns FALSE (0001ms, 0809ms total)
T3A84 001:176 JLINK_IsHalted()  returns FALSE (0001ms, 0809ms total)
T3A84 001:178 JLINK_IsHalted()  returns FALSE (0001ms, 0809ms total)
T3A84 001:180 JLINK_IsHalted()  returns FALSE (0001ms, 0809ms total)
T3A84 001:182 JLINK_IsHalted()  returns FALSE (0001ms, 0809ms total)
T3A84 001:184 JLINK_IsHalted()  returns FALSE (0001ms, 0809ms total)
T3A84 001:186 JLINK_IsHalted()  returns FALSE (0001ms, 0809ms total)
T3A84 001:188 JLINK_IsHalted()  returns FALSE (0001ms, 0809ms total)
T3A84 001:190 JLINK_IsHalted()  returns FALSE (0001ms, 0809ms total)
T3A84 001:192 JLINK_IsHalted()  returns FALSE (0001ms, 0809ms total)
T3A84 001:194 JLINK_IsHalted()  returns FALSE (0001ms, 0809ms total)
T3A84 001:199 JLINK_IsHalted() -- CPU_ReadMem(2 bytes @ 0x20000000)  returns TRUE (0006ms, 0814ms total)
T3A84 001:205 JLINK_ReadReg(R15 (PC))  returns 0x20000000 (0000ms, 0808ms total)
T3A84 001:205 JLINK_ClrBPEx(BPHandle = 0x00000008)  returns 0x00 (0000ms, 0808ms total)
T3A84 001:205 JLINK_ReadReg(R0)  returns 0x00000000 (0000ms, 0808ms total)
T3A84 001:206 JLINK_WriteMem(0x20000164, 0x0400 Bytes, ...) - Data: 28 68 A1 68 08 40 D4 E9 01 12 11 40 88 42 10 D0 ... -- CPU_WriteMem(1024 bytes @ 0x20000164)  returns 0x400 (0011ms, 0819ms total)
T3A84 001:217 JLINK_WriteReg(R0, 0x08001000)  returns 0x00 (0000ms, 0819ms total)
T3A84 001:217 JLINK_WriteReg(R1, 0x00000400)  returns 0x00 (0000ms, 0819ms total)
T3A84 001:217 JLINK_WriteReg(R2, 0x20000164)  returns 0x00 (0000ms, 0819ms total)
T3A84 001:218 JLINK_WriteReg(R3, 0x00000000)  returns 0x00 (0000ms, 0819ms total)
T3A84 001:218 JLINK_WriteReg(R4, 0x00000000)  returns 0x00 (0000ms, 0819ms total)
T3A84 001:218 JLINK_WriteReg(R5, 0x00000000)  returns 0x00 (0000ms, 0819ms total)
T3A84 001:218 JLINK_WriteReg(R6, 0x00000000)  returns 0x00 (0000ms, 0819ms total)
T3A84 001:218 JLINK_WriteReg(R7, 0x00000000)  returns 0x00 (0000ms, 0819ms total)
T3A84 001:218 JLINK_WriteReg(R8, 0x00000000)  returns 0x00 (0000ms, 0819ms total)
T3A84 001:218 JLINK_WriteReg(R9, 0x20000160)  returns 0x00 (0000ms, 0819ms total)
T3A84 001:218 JLINK_WriteReg(R10, 0x00000000)  returns 0x00 (0000ms, 0819ms total)
T3A84 001:218 JLINK_WriteReg(R11, 0x00000000)  returns 0x00 (0000ms, 0819ms total)
T3A84 001:218 JLINK_WriteReg(R12, 0x00000000)  returns 0x00 (0000ms, 0819ms total)
T3A84 001:218 JLINK_WriteReg(R13 (SP), 0x20001000)  returns 0x00 (0000ms, 0819ms total)
T3A84 001:218 JLINK_WriteReg(R14, 0x20000001)  returns 0x00 (0000ms, 0819ms total)
T3A84 001:218 JLINK_WriteReg(R15 (PC), 0x200000F4)  returns 0x00 (0000ms, 0819ms total)
T3A84 001:218 JLINK_WriteReg(XPSR, 0x01000000)  returns 0x00 (0000ms, 0819ms total)
T3A84 001:218 JLINK_WriteReg(MSP, 0x20001000)  returns 0x00 (0000ms, 0819ms total)
T3A84 001:218 JLINK_WriteReg(PSP, 0x20001000)  returns 0x00 (0000ms, 0819ms total)
T3A84 001:218 JLINK_WriteReg(CFBP, 0x00000000)  returns 0x00 (0000ms, 0819ms total)
T3A84 001:218 JLINK_SetBPEx(Addr = 0x20000000, Type = 0xFFFFFFF2)  returns 0x00000009 (0000ms, 0819ms total)
T3A84 001:218 JLINK_Go() (0003ms, 0822ms total)
T3A84 001:221 JLINK_IsHalted()  returns FALSE (0001ms, 0823ms total)
T3A84 001:223 JLINK_IsHalted()  returns FALSE (0001ms, 0823ms total)
T3A84 001:225 JLINK_IsHalted()  returns FALSE (0001ms, 0823ms total)
T3A84 001:227 JLINK_IsHalted()  returns FALSE (0001ms, 0823ms total)
T3A84 001:229 JLINK_IsHalted()  returns FALSE (0001ms, 0823ms total)
T3A84 001:231 JLINK_IsHalted()  returns FALSE (0001ms, 0823ms total)
T3A84 001:233 JLINK_IsHalted()  returns FALSE (0001ms, 0823ms total)
T3A84 001:235 JLINK_IsHalted()  returns FALSE (0001ms, 0823ms total)
T3A84 001:237 JLINK_IsHalted()  returns FALSE (0001ms, 0823ms total)
T3A84 001:239 JLINK_IsHalted()  returns FALSE (0001ms, 0823ms total)
T3A84 001:241 JLINK_IsHalted()  returns FALSE (0001ms, 0823ms total)
T3A84 001:243 JLINK_IsHalted()  returns FALSE (0001ms, 0823ms total)
T3A84 001:245 JLINK_IsHalted()  returns FALSE (0001ms, 0823ms total)
T3A84 001:247 JLINK_IsHalted()  returns FALSE (0001ms, 0823ms total)
T3A84 001:249 JLINK_IsHalted()  returns FALSE (0001ms, 0823ms total)
T3A84 001:251 JLINK_IsHalted() -- CPU_ReadMem(2 bytes @ 0x20000000)  returns TRUE (0006ms, 0828ms total)
T3A84 001:257 JLINK_ReadReg(R15 (PC))  returns 0x20000000 (0000ms, 0822ms total)
T3A84 001:257 JLINK_ClrBPEx(BPHandle = 0x00000009)  returns 0x00 (0000ms, 0822ms total)
T3A84 001:257 JLINK_ReadReg(R0)  returns 0x00000000 (0000ms, 0822ms total)
T3A84 001:259 JLINK_WriteMem(0x20000164, 0x0400 Bytes, ...) - Data: 1D B1 30 46 02 F0 14 F9 00 26 28 46 F2 E7 70 B5 ... -- CPU_WriteMem(1024 bytes @ 0x20000164)  returns 0x400 (0011ms, 0833ms total)
T3A84 001:270 JLINK_WriteReg(R0, 0x08001400)  returns 0x00 (0000ms, 0833ms total)
T3A84 001:270 JLINK_WriteReg(R1, 0x00000400)  returns 0x00 (0000ms, 0833ms total)
T3A84 001:270 JLINK_WriteReg(R2, 0x20000164)  returns 0x00 (0000ms, 0833ms total)
T3A84 001:270 JLINK_WriteReg(R3, 0x00000000)  returns 0x00 (0000ms, 0833ms total)
T3A84 001:270 JLINK_WriteReg(R4, 0x00000000)  returns 0x00 (0000ms, 0833ms total)
T3A84 001:270 JLINK_WriteReg(R5, 0x00000000)  returns 0x00 (0000ms, 0833ms total)
T3A84 001:270 JLINK_WriteReg(R6, 0x00000000)  returns 0x00 (0000ms, 0833ms total)
T3A84 001:270 JLINK_WriteReg(R7, 0x00000000)  returns 0x00 (0000ms, 0833ms total)
T3A84 001:270 JLINK_WriteReg(R8, 0x00000000)  returns 0x00 (0000ms, 0833ms total)
T3A84 001:270 JLINK_WriteReg(R9, 0x20000160)  returns 0x00 (0000ms, 0833ms total)
T3A84 001:270 JLINK_WriteReg(R10, 0x00000000)  returns 0x00 (0000ms, 0833ms total)
T3A84 001:270 JLINK_WriteReg(R11, 0x00000000)  returns 0x00 (0000ms, 0833ms total)
T3A84 001:270 JLINK_WriteReg(R12, 0x00000000)  returns 0x00 (0000ms, 0833ms total)
T3A84 001:270 JLINK_WriteReg(R13 (SP), 0x20001000)  returns 0x00 (0000ms, 0833ms total)
T3A84 001:270 JLINK_WriteReg(R14, 0x20000001)  returns 0x00 (0001ms, 0834ms total)
T3A84 001:271 JLINK_WriteReg(R15 (PC), 0x200000F4)  returns 0x00 (0000ms, 0834ms total)
T3A84 001:271 JLINK_WriteReg(XPSR, 0x01000000)  returns 0x00 (0000ms, 0834ms total)
T3A84 001:271 JLINK_WriteReg(MSP, 0x20001000)  returns 0x00 (0000ms, 0834ms total)
T3A84 001:271 JLINK_WriteReg(PSP, 0x20001000)  returns 0x00 (0000ms, 0834ms total)
T3A84 001:271 JLINK_WriteReg(CFBP, 0x00000000)  returns 0x00 (0000ms, 0834ms total)
T3A84 001:271 JLINK_SetBPEx(Addr = 0x20000000, Type = 0xFFFFFFF2)  returns 0x0000000A (0000ms, 0834ms total)
T3A84 001:271 JLINK_Go() (0002ms, 0836ms total)
T3A84 001:273 JLINK_IsHalted()  returns FALSE (0001ms, 0837ms total)
T3A84 001:283 JLINK_IsHalted()  returns FALSE (0001ms, 0837ms total)
T3A84 001:285 JLINK_IsHalted()  returns FALSE (0001ms, 0837ms total)
T3A84 001:287 JLINK_IsHalted()  returns FALSE (0001ms, 0837ms total)
T3A84 001:289 JLINK_IsHalted()  returns FALSE (0001ms, 0837ms total)
T3A84 001:291 JLINK_IsHalted()  returns FALSE (0001ms, 0837ms total)
T3A84 001:293 JLINK_IsHalted()  returns FALSE (0001ms, 0837ms total)
T3A84 001:295 JLINK_IsHalted()  returns FALSE (0001ms, 0837ms total)
T3A84 001:297 JLINK_IsHalted()  returns FALSE (0001ms, 0837ms total)
T3A84 001:299 JLINK_IsHalted()  returns FALSE (0001ms, 0837ms total)
T3A84 001:301 JLINK_IsHalted()  returns FALSE (0001ms, 0837ms total)
T3A84 001:303 JLINK_IsHalted()  returns FALSE (0001ms, 0837ms total)
T3A84 001:305 JLINK_IsHalted() -- CPU_ReadMem(2 bytes @ 0x20000000)  returns TRUE (0006ms, 0842ms total)
T3A84 001:311 JLINK_ReadReg(R15 (PC))  returns 0x20000000 (0000ms, 0836ms total)
T3A84 001:311 JLINK_ClrBPEx(BPHandle = 0x0000000A)  returns 0x00 (0000ms, 0836ms total)
T3A84 001:311 JLINK_ReadReg(R0)  returns 0x00000000 (0000ms, 0836ms total)
T3A84 001:313 JLINK_WriteMem(0x20000164, 0x0400 Bytes, ...) - Data: 70 61 06 E0 46 0D 36 01 03 FA 06 F6 B1 43 41 F0 ... -- CPU_WriteMem(1024 bytes @ 0x20000164)  returns 0x400 (0011ms, 0847ms total)
T3A84 001:324 JLINK_WriteReg(R0, 0x08001800)  returns 0x00 (0000ms, 0847ms total)
T3A84 001:324 JLINK_WriteReg(R1, 0x00000400)  returns 0x00 (0000ms, 0847ms total)
T3A84 001:324 JLINK_WriteReg(R2, 0x20000164)  returns 0x00 (0000ms, 0847ms total)
T3A84 001:324 JLINK_WriteReg(R3, 0x00000000)  returns 0x00 (0000ms, 0847ms total)
T3A84 001:324 JLINK_WriteReg(R4, 0x00000000)  returns 0x00 (0000ms, 0847ms total)
T3A84 001:324 JLINK_WriteReg(R5, 0x00000000)  returns 0x00 (0000ms, 0847ms total)
T3A84 001:324 JLINK_WriteReg(R6, 0x00000000)  returns 0x00 (0000ms, 0847ms total)
T3A84 001:324 JLINK_WriteReg(R7, 0x00000000)  returns 0x00 (0000ms, 0847ms total)
T3A84 001:324 JLINK_WriteReg(R8, 0x00000000)  returns 0x00 (0000ms, 0847ms total)
T3A84 001:324 JLINK_WriteReg(R9, 0x20000160)  returns 0x00 (0000ms, 0847ms total)
T3A84 001:324 JLINK_WriteReg(R10, 0x00000000)  returns 0x00 (0000ms, 0847ms total)
T3A84 001:324 JLINK_WriteReg(R11, 0x00000000)  returns 0x00 (0000ms, 0847ms total)
T3A84 001:324 JLINK_WriteReg(R12, 0x00000000)  returns 0x00 (0000ms, 0847ms total)
T3A84 001:325 JLINK_WriteReg(R13 (SP), 0x20001000)  returns 0x00 (0000ms, 0848ms total)
T3A84 001:325 JLINK_WriteReg(R14, 0x20000001)  returns 0x00 (0000ms, 0848ms total)
T3A84 001:325 JLINK_WriteReg(R15 (PC), 0x200000F4)  returns 0x00 (0000ms, 0848ms total)
T3A84 001:325 JLINK_WriteReg(XPSR, 0x01000000)  returns 0x00 (0000ms, 0848ms total)
T3A84 001:325 JLINK_WriteReg(MSP, 0x20001000)  returns 0x00 (0000ms, 0848ms total)
T3A84 001:325 JLINK_WriteReg(PSP, 0x20001000)  returns 0x00 (0000ms, 0848ms total)
T3A84 001:325 JLINK_WriteReg(CFBP, 0x00000000)  returns 0x00 (0000ms, 0848ms total)
T3A84 001:325 JLINK_SetBPEx(Addr = 0x20000000, Type = 0xFFFFFFF2)  returns 0x0000000B (0000ms, 0848ms total)
T3A84 001:325 JLINK_Go() (0002ms, 0850ms total)
T3A84 001:327 JLINK_IsHalted()  returns FALSE (0001ms, 0851ms total)
T3A84 001:329 JLINK_IsHalted()  returns FALSE (0000ms, 0850ms total)
T3A84 001:330 JLINK_IsHalted()  returns FALSE (0000ms, 0850ms total)
T3A84 001:331 JLINK_IsHalted()  returns FALSE (0000ms, 0850ms total)
T3A84 001:332 JLINK_IsHalted()  returns FALSE (0000ms, 0850ms total)
T3A84 001:333 JLINK_IsHalted()  returns FALSE (0000ms, 0850ms total)
T3A84 001:334 JLINK_IsHalted()  returns FALSE (0000ms, 0850ms total)
T3A84 001:335 JLINK_IsHalted()  returns FALSE (0000ms, 0850ms total)
T3A84 001:336 JLINK_IsHalted()  returns FALSE (0000ms, 0850ms total)
T3A84 001:337 JLINK_IsHalted()  returns FALSE (0000ms, 0850ms total)
T3A84 001:338 JLINK_IsHalted()  returns FALSE (0000ms, 0850ms total)
T3A84 001:339 JLINK_IsHalted()  returns FALSE (0000ms, 0850ms total)
T3A84 001:340 JLINK_IsHalted()  returns FALSE (0000ms, 0850ms total)
T3A84 001:341 JLINK_IsHalted()  returns FALSE (0000ms, 0850ms total)
T3A84 001:342 JLINK_IsHalted()  returns FALSE (0000ms, 0850ms total)
T3A84 001:343 JLINK_IsHalted()  returns FALSE (0000ms, 0850ms total)
T3A84 001:344 JLINK_IsHalted()  returns FALSE (0000ms, 0850ms total)
T3A84 001:345 JLINK_IsHalted()  returns FALSE (0000ms, 0850ms total)
T3A84 001:346 JLINK_IsHalted()  returns FALSE (0000ms, 0850ms total)
T3A84 001:347 JLINK_IsHalted()  returns FALSE (0000ms, 0850ms total)
T3A84 001:348 JLINK_IsHalted()  returns FALSE (0000ms, 0850ms total)
T3A84 001:349 JLINK_IsHalted()  returns FALSE (0000ms, 0850ms total)
T3A84 001:350 JLINK_IsHalted()  returns FALSE (0000ms, 0850ms total)
T3A84 001:357 JLINK_IsHalted()  returns FALSE (0001ms, 0851ms total)
T3A84 001:359 JLINK_IsHalted() -- CPU_ReadMem(2 bytes @ 0x20000000)  returns TRUE (0006ms, 0856ms total)
T3A84 001:365 JLINK_ReadReg(R15 (PC))  returns 0x20000000 (0000ms, 0850ms total)
T3A84 001:365 JLINK_ClrBPEx(BPHandle = 0x0000000B)  returns 0x00 (0000ms, 0850ms total)
T3A84 001:365 JLINK_ReadReg(R0)  returns 0x00000000 (0000ms, 0850ms total)
T3A84 001:366 JLINK_WriteMem(0x20000164, 0x0400 Bytes, ...) - Data: F0 01 09 09 DF F8 A4 80 18 F8 01 30 D0 F8 00 80 ... -- CPU_WriteMem(1024 bytes @ 0x20000164)  returns 0x400 (0011ms, 0861ms total)
T3A84 001:377 JLINK_WriteReg(R0, 0x08001C00)  returns 0x00 (0000ms, 0861ms total)
T3A84 001:377 JLINK_WriteReg(R1, 0x00000400)  returns 0x00 (0000ms, 0861ms total)
T3A84 001:378 JLINK_WriteReg(R2, 0x20000164)  returns 0x00 (0000ms, 0862ms total)
T3A84 001:378 JLINK_WriteReg(R3, 0x00000000)  returns 0x00 (0000ms, 0862ms total)
T3A84 001:378 JLINK_WriteReg(R4, 0x00000000)  returns 0x00 (0000ms, 0862ms total)
T3A84 001:378 JLINK_WriteReg(R5, 0x00000000)  returns 0x00 (0000ms, 0862ms total)
T3A84 001:378 JLINK_WriteReg(R6, 0x00000000)  returns 0x00 (0000ms, 0862ms total)
T3A84 001:378 JLINK_WriteReg(R7, 0x00000000)  returns 0x00 (0000ms, 0862ms total)
T3A84 001:378 JLINK_WriteReg(R8, 0x00000000)  returns 0x00 (0000ms, 0862ms total)
T3A84 001:378 JLINK_WriteReg(R9, 0x20000160)  returns 0x00 (0000ms, 0862ms total)
T3A84 001:378 JLINK_WriteReg(R10, 0x00000000)  returns 0x00 (0000ms, 0862ms total)
T3A84 001:378 JLINK_WriteReg(R11, 0x00000000)  returns 0x00 (0000ms, 0862ms total)
T3A84 001:378 JLINK_WriteReg(R12, 0x00000000)  returns 0x00 (0000ms, 0862ms total)
T3A84 001:378 JLINK_WriteReg(R13 (SP), 0x20001000)  returns 0x00 (0000ms, 0862ms total)
T3A84 001:378 JLINK_WriteReg(R14, 0x20000001)  returns 0x00 (0000ms, 0862ms total)
T3A84 001:378 JLINK_WriteReg(R15 (PC), 0x200000F4)  returns 0x00 (0000ms, 0862ms total)
T3A84 001:378 JLINK_WriteReg(XPSR, 0x01000000)  returns 0x00 (0000ms, 0862ms total)
T3A84 001:378 JLINK_WriteReg(MSP, 0x20001000)  returns 0x00 (0000ms, 0862ms total)
T3A84 001:378 JLINK_WriteReg(PSP, 0x20001000)  returns 0x00 (0000ms, 0862ms total)
T3A84 001:378 JLINK_WriteReg(CFBP, 0x00000000)  returns 0x00 (0000ms, 0862ms total)
T3A84 001:378 JLINK_SetBPEx(Addr = 0x20000000, Type = 0xFFFFFFF2)  returns 0x0000000C (0000ms, 0862ms total)
T3A84 001:378 JLINK_Go() (0003ms, 0865ms total)
T3A84 001:381 JLINK_IsHalted()  returns FALSE (0001ms, 0866ms total)
T3A84 001:389 JLINK_IsHalted()  returns FALSE (0001ms, 0866ms total)
T3A84 001:391 JLINK_IsHalted()  returns FALSE (0001ms, 0866ms total)
T3A84 001:393 JLINK_IsHalted()  returns FALSE (0001ms, 0866ms total)
T3A84 001:395 JLINK_IsHalted()  returns FALSE (0001ms, 0866ms total)
T3A84 001:397 JLINK_IsHalted()  returns FALSE (0001ms, 0866ms total)
T3A84 001:399 JLINK_IsHalted()  returns FALSE (0001ms, 0866ms total)
T3A84 001:401 JLINK_IsHalted()  returns FALSE (0001ms, 0866ms total)
T3A84 001:403 JLINK_IsHalted()  returns FALSE (0001ms, 0866ms total)
T3A84 001:405 JLINK_IsHalted()  returns FALSE (0001ms, 0866ms total)
T3A84 001:407 JLINK_IsHalted()  returns FALSE (0001ms, 0866ms total)
T3A84 001:409 JLINK_IsHalted()  returns FALSE (0001ms, 0866ms total)
T3A84 001:411 JLINK_IsHalted() -- CPU_ReadMem(2 bytes @ 0x20000000)  returns TRUE (0006ms, 0871ms total)
T3A84 001:417 JLINK_ReadReg(R15 (PC))  returns 0x20000000 (0000ms, 0865ms total)
T3A84 001:417 JLINK_ClrBPEx(BPHandle = 0x0000000C)  returns 0x00 (0000ms, 0865ms total)
T3A84 001:417 JLINK_ReadReg(R0)  returns 0x00000000 (0000ms, 0865ms total)
T3A84 001:418 JLINK_WriteMem(0x20000164, 0x0400 Bytes, ...) - Data: 6E 48 05 60 D4 E9 0E 01 08 43 21 6C 08 43 61 6C ... -- CPU_WriteMem(1024 bytes @ 0x20000164)  returns 0x400 (0011ms, 0876ms total)
T3A84 001:429 JLINK_WriteReg(R0, 0x08002000)  returns 0x00 (0000ms, 0876ms total)
T3A84 001:429 JLINK_WriteReg(R1, 0x00000400)  returns 0x00 (0000ms, 0876ms total)
T3A84 001:429 JLINK_WriteReg(R2, 0x20000164)  returns 0x00 (0000ms, 0876ms total)
T3A84 001:429 JLINK_WriteReg(R3, 0x00000000)  returns 0x00 (0001ms, 0877ms total)
T3A84 001:430 JLINK_WriteReg(R4, 0x00000000)  returns 0x00 (0000ms, 0877ms total)
T3A84 001:430 JLINK_WriteReg(R5, 0x00000000)  returns 0x00 (0000ms, 0877ms total)
T3A84 001:430 JLINK_WriteReg(R6, 0x00000000)  returns 0x00 (0000ms, 0877ms total)
T3A84 001:430 JLINK_WriteReg(R7, 0x00000000)  returns 0x00 (0000ms, 0877ms total)
T3A84 001:430 JLINK_WriteReg(R8, 0x00000000)  returns 0x00 (0000ms, 0877ms total)
T3A84 001:430 JLINK_WriteReg(R9, 0x20000160)  returns 0x00 (0000ms, 0877ms total)
T3A84 001:430 JLINK_WriteReg(R10, 0x00000000)  returns 0x00 (0000ms, 0877ms total)
T3A84 001:430 JLINK_WriteReg(R11, 0x00000000)  returns 0x00 (0000ms, 0877ms total)
T3A84 001:430 JLINK_WriteReg(R12, 0x00000000)  returns 0x00 (0000ms, 0877ms total)
T3A84 001:430 JLINK_WriteReg(R13 (SP), 0x20001000)  returns 0x00 (0000ms, 0877ms total)
T3A84 001:430 JLINK_WriteReg(R14, 0x20000001)  returns 0x00 (0000ms, 0877ms total)
T3A84 001:430 JLINK_WriteReg(R15 (PC), 0x200000F4)  returns 0x00 (0000ms, 0877ms total)
T3A84 001:430 JLINK_WriteReg(XPSR, 0x01000000)  returns 0x00 (0000ms, 0877ms total)
T3A84 001:430 JLINK_WriteReg(MSP, 0x20001000)  returns 0x00 (0000ms, 0877ms total)
T3A84 001:430 JLINK_WriteReg(PSP, 0x20001000)  returns 0x00 (0000ms, 0877ms total)
T3A84 001:430 JLINK_WriteReg(CFBP, 0x00000000)  returns 0x00 (0000ms, 0877ms total)
T3A84 001:430 JLINK_SetBPEx(Addr = 0x20000000, Type = 0xFFFFFFF2)  returns 0x0000000D (0000ms, 0877ms total)
T3A84 001:430 JLINK_Go() (0003ms, 0880ms total)
T3A84 001:433 JLINK_IsHalted()  returns FALSE (0001ms, 0881ms total)
T3A84 001:435 JLINK_IsHalted()  returns FALSE (0001ms, 0881ms total)
T3A84 001:437 JLINK_IsHalted()  returns FALSE (0001ms, 0881ms total)
T3A84 001:439 JLINK_IsHalted()  returns FALSE (0001ms, 0881ms total)
T3A84 001:441 JLINK_IsHalted()  returns FALSE (0001ms, 0881ms total)
T3A84 001:443 JLINK_IsHalted()  returns FALSE (0001ms, 0881ms total)
T3A84 001:445 JLINK_IsHalted()  returns FALSE (0001ms, 0881ms total)
T3A84 001:447 JLINK_IsHalted()  returns FALSE (0001ms, 0881ms total)
T3A84 001:449 JLINK_IsHalted()  returns FALSE (0001ms, 0881ms total)
T3A84 001:451 JLINK_IsHalted()  returns FALSE (0001ms, 0881ms total)
T3A84 001:453 JLINK_IsHalted()  returns FALSE (0001ms, 0881ms total)
T3A84 001:455 JLINK_IsHalted()  returns FALSE (0001ms, 0881ms total)
T3A84 001:457 JLINK_IsHalted()  returns FALSE (0001ms, 0881ms total)
T3A84 001:459 JLINK_IsHalted()  returns FALSE (0001ms, 0881ms total)
T3A84 001:461 JLINK_IsHalted()  returns FALSE (0001ms, 0881ms total)
T3A84 001:463 JLINK_IsHalted() -- CPU_ReadMem(2 bytes @ 0x20000000)  returns TRUE (0006ms, 0886ms total)
T3A84 001:469 JLINK_ReadReg(R15 (PC))  returns 0x20000000 (0000ms, 0880ms total)
T3A84 001:469 JLINK_ClrBPEx(BPHandle = 0x0000000D)  returns 0x00 (0000ms, 0880ms total)
T3A84 001:469 JLINK_ReadReg(R0)  returns 0x00000000 (0000ms, 0880ms total)
T3A84 001:470 JLINK_WriteMem(0x20000164, 0x0400 Bytes, ...) - Data: 09 68 08 60 71 48 00 68 80 88 00 F4 80 40 28 B1 ... -- CPU_WriteMem(1024 bytes @ 0x20000164)  returns 0x400 (0011ms, 0891ms total)
T3A84 001:481 JLINK_WriteReg(R0, 0x08002400)  returns 0x00 (0000ms, 0891ms total)
T3A84 001:481 JLINK_WriteReg(R1, 0x00000400)  returns 0x00 (0000ms, 0891ms total)
T3A84 001:482 JLINK_WriteReg(R2, 0x20000164)  returns 0x00 (0000ms, 0891ms total)
T3A84 001:482 JLINK_WriteReg(R3, 0x00000000)  returns 0x00 (0000ms, 0891ms total)
T3A84 001:482 JLINK_WriteReg(R4, 0x00000000)  returns 0x00 (0000ms, 0891ms total)
T3A84 001:482 JLINK_WriteReg(R5, 0x00000000)  returns 0x00 (0000ms, 0891ms total)
T3A84 001:482 JLINK_WriteReg(R6, 0x00000000)  returns 0x00 (0000ms, 0891ms total)
T3A84 001:482 JLINK_WriteReg(R7, 0x00000000)  returns 0x00 (0000ms, 0891ms total)
T3A84 001:482 JLINK_WriteReg(R8, 0x00000000)  returns 0x00 (0000ms, 0891ms total)
T3A84 001:482 JLINK_WriteReg(R9, 0x20000160)  returns 0x00 (0000ms, 0891ms total)
T3A84 001:482 JLINK_WriteReg(R10, 0x00000000)  returns 0x00 (0000ms, 0891ms total)
T3A84 001:482 JLINK_WriteReg(R11, 0x00000000)  returns 0x00 (0000ms, 0891ms total)
T3A84 001:482 JLINK_WriteReg(R12, 0x00000000)  returns 0x00 (0000ms, 0891ms total)
T3A84 001:482 JLINK_WriteReg(R13 (SP), 0x20001000)  returns 0x00 (0000ms, 0891ms total)
T3A84 001:482 JLINK_WriteReg(R14, 0x20000001)  returns 0x00 (0000ms, 0891ms total)
T3A84 001:482 JLINK_WriteReg(R15 (PC), 0x200000F4)  returns 0x00 (0000ms, 0891ms total)
T3A84 001:482 JLINK_WriteReg(XPSR, 0x01000000)  returns 0x00 (0000ms, 0891ms total)
T3A84 001:482 JLINK_WriteReg(MSP, 0x20001000)  returns 0x00 (0000ms, 0891ms total)
T3A84 001:482 JLINK_WriteReg(PSP, 0x20001000)  returns 0x00 (0000ms, 0891ms total)
T3A84 001:482 JLINK_WriteReg(CFBP, 0x00000000)  returns 0x00 (0000ms, 0891ms total)
T3A84 001:482 JLINK_SetBPEx(Addr = 0x20000000, Type = 0xFFFFFFF2)  returns 0x0000000E (0000ms, 0891ms total)
T3A84 001:482 JLINK_Go() (0003ms, 0894ms total)
T3A84 001:485 JLINK_IsHalted()  returns FALSE (0001ms, 0895ms total)
T3A84 001:490 JLINK_IsHalted()  returns FALSE (0001ms, 0895ms total)
T3A84 001:492 JLINK_IsHalted()  returns FALSE (0001ms, 0895ms total)
T3A84 001:497 JLINK_IsHalted()  returns FALSE (0001ms, 0895ms total)
T3A84 001:499 JLINK_IsHalted()  returns FALSE (0001ms, 0895ms total)
T3A84 001:501 JLINK_IsHalted()  returns FALSE (0001ms, 0895ms total)
T3A84 001:503 JLINK_IsHalted()  returns FALSE (0001ms, 0895ms total)
T3A84 001:505 JLINK_IsHalted()  returns FALSE (0001ms, 0895ms total)
T3A84 001:507 JLINK_IsHalted()  returns FALSE (0001ms, 0895ms total)
T3A84 001:509 JLINK_IsHalted()  returns FALSE (0001ms, 0895ms total)
T3A84 001:511 JLINK_IsHalted()  returns FALSE (0001ms, 0895ms total)
T3A84 001:513 JLINK_IsHalted()  returns FALSE (0001ms, 0895ms total)
T3A84 001:515 JLINK_IsHalted() -- CPU_ReadMem(2 bytes @ 0x20000000)  returns TRUE (0006ms, 0900ms total)
T3A84 001:521 JLINK_ReadReg(R15 (PC))  returns 0x20000000 (0000ms, 0894ms total)
T3A84 001:521 JLINK_ClrBPEx(BPHandle = 0x0000000E)  returns 0x00 (0000ms, 0894ms total)
T3A84 001:521 JLINK_ReadReg(R0)  returns 0x00000000 (0000ms, 0894ms total)
T3A84 001:522 JLINK_WriteMem(0x20000164, 0x0400 Bytes, ...) - Data: 00 42 42 60 03 E0 42 68 22 F4 00 42 42 60 70 47 ... -- CPU_WriteMem(1024 bytes @ 0x20000164)  returns 0x400 (0012ms, 0906ms total)
T3A84 001:534 JLINK_WriteReg(R0, 0x08002800)  returns 0x00 (0000ms, 0906ms total)
T3A84 001:534 JLINK_WriteReg(R1, 0x00000400)  returns 0x00 (0000ms, 0906ms total)
T3A84 001:534 JLINK_WriteReg(R2, 0x20000164)  returns 0x00 (0000ms, 0906ms total)
T3A84 001:534 JLINK_WriteReg(R3, 0x00000000)  returns 0x00 (0000ms, 0906ms total)
T3A84 001:534 JLINK_WriteReg(R4, 0x00000000)  returns 0x00 (0000ms, 0906ms total)
T3A84 001:534 JLINK_WriteReg(R5, 0x00000000)  returns 0x00 (0000ms, 0906ms total)
T3A84 001:534 JLINK_WriteReg(R6, 0x00000000)  returns 0x00 (0000ms, 0906ms total)
T3A84 001:534 JLINK_WriteReg(R7, 0x00000000)  returns 0x00 (0000ms, 0906ms total)
T3A84 001:534 JLINK_WriteReg(R8, 0x00000000)  returns 0x00 (0000ms, 0906ms total)
T3A84 001:534 JLINK_WriteReg(R9, 0x20000160)  returns 0x00 (0000ms, 0906ms total)
T3A84 001:534 JLINK_WriteReg(R10, 0x00000000)  returns 0x00 (0000ms, 0906ms total)
T3A84 001:534 JLINK_WriteReg(R11, 0x00000000)  returns 0x00 (0000ms, 0906ms total)
T3A84 001:534 JLINK_WriteReg(R12, 0x00000000)  returns 0x00 (0000ms, 0906ms total)
